time,"V(1,0)","P(3,0)","V(3,0)","V(5,0)"
0.000000e+00,0.000000e+00,0.000000e+00,0.000000e+00,0.000000e+00
2.500000e-13,2.153245e-05,5.334060e-03,1.053283e-05,1.781232e-05
5.000000e-13,3.165260e-05,1.785449e-02,2.121234e-05,3.467962e-05
7.500000e-13,4.588216e-05,3.964089e-02,3.477911e-05,5.518893e-05
1.000000e-12,5.583818e-05,7.052403e-02,4.664290e-05,7.170643e-05
1.250000e-12,5.978130e-05,1.084539e-01,5.457009e-05,8.131991e-05
1.500000e-12,5.837338e-05,1.503828e-01,5.782837e-05,8.395573e-05
1.750000e-12,5.378001e-05,1.932335e-01,5.701634e-05,8.157142e-05
2.000000e-12,4.852569e-05,2.346434e-01,5.356465e-05,7.691861e-05
2.250000e-12,4.458115e-05,2.733379e-01,4.915103e-05,7.246220e-05
2.500000e-12,4.291440e-05,3.091327e-01,4.521256e-05,6.976455e-05
2.750000e-12,4.350539e-05,3.426671e-01,4.265773e-05,6.937053e-05
3.000000e-12,4.567061e-05,3.750118e-01,4.179624e-05,7.104397e-05
3.250000e-12,4.849367e-05,4.072868e-01,4.244168e-05,7.414664e-05
3.500000e-12,5.119145e-05,4.403834e-01,4.411003e-05,7.798622e-05
3.750000e-12,5.332125e-05,4.748298e-01,4.623434e-05,8.204052e-05
4.000000e-12,5.481541e-05,5.107897e-01,4.833479e-05,8.604393e-05
4.250000e-12,5.588851e-05,5.481548e-01,5.011314e-05,8.997228e-05
4.500000e-12,5.688794e-05,5.866755e-01,5.147034e-05,9.397841e-05
4.750000e-12,5.815404e-05,6.260863e-01,5.246710e-05,9.832275e-05
5.000000e-12,5.993163e-05,6.661939e-01,5.325728e-05,1.033244e-04
5.250000e-12,4.081336e-05,7.015866e-01,4.348833e-05,9.152986e-05
5.500000e-12,3.176895e-05,7.301105e-01,3.302848e-05,7.915010e-05
5.750000e-12,1.635368e-05,7.491626e-01,1.884616e-05,6.008734e-05
6.000000e-12,2.577135e-06,7.582085e-01,5.322101e-06,4.097067e-05
6.250000e-12,-7.208561e-06,7.585921e-01,-5.196718e-06,2.491971e-05
6.500000e-12,-1.227978e-05,7.528788e-01,-1.153417e-05,1.336563e-05
6.750000e-12,-1.316015e-05,7.440660e-01,-1.364156e-05,6.372158e-06
7.000000e-12,-1.108624e-05,7.348893e-01,-1.231999e-05,3.167884e-06
7.250000e-12,-7.505588e-06,7.273542e-01,-8.838728e-06,2.643777e-06
7.500000e-12,-3.696663e-06,7.225370e-01,-4.552673e-06,3.705677e-06
8.000000e-12,1.518367e-06,7.211522e-01,2.290034e-06,7.291572e-06
8.250000e-12,2.469151e-06,7.232605e-01,3.818633e-06,8.804931e-06
8.500000e-12,2.544609e-06,7.260278e-01,4.076604e-06,9.807879e-06
8.750000e-12,2.094065e-06,7.286725e-01,3.400888e-06,1.023693e-05
9.000000e-12,1.448084e-06,7.306824e-01,2.227974e-06,1.011812e-05
9.250000e-12,8.400219e-07,7.318420e-01,9.667896e-07,9.537496e-06
9.500000e-12,3.833227e-07,7.321862e-01,-8.357751e-08,8.619620e-06
9.750000e-12,9.194856e-08,7.319130e-01,-7.658497e-07,7.508012e-06
1.000000e-11,-7.711806e-08,7.312881e-01,-1.054261e-06,6.345278e-06
1.025000e-11,-1.802656e-07,7.305645e-01,-1.017590e-06,5.254070e-06
1.050000e-11,-2.571510e-07,7.299320e-01,-7.726145e-07,4.322278e-06
1.075000e-11,-3.197510e-07,7.294973e-01,-4.420024e-07,3.595596e-06
1.100000e-11,-3.580026e-07,7.292891e-01,-1.250662e-07,3.078731e-06
1.125000e-11,-3.543831e-07,7.292785e-01,1.160727e-07,2.744089e-06
1.150000e-11,-2.986664e-07,7.294051e-01,2.570033e-07,2.544860e-06
1.175000e-11,-1.963856e-07,7.296006e-01,3.028548e-07,2.428764e-06
1.200000e-11,-6.861591e-08,7.298059e-01,2.765348e-07,2.349198e-06
1.225000e-11,5.529333e-08,7.299793e-01,2.074603e-07,2.271954e-06
1.250000e-11,1.479253e-07,7.300996e-01,1.231736e-07,2.177253e-06
1.275000e-11,1.924575e-07,7.301622e-01,4.458467e-08,2.058129e-06
1.300000e-11,1.867137e-07,7.301752e-01,-1.559439e-08,1.916779e-06
1.325000e-11,1.418310e-07,7.301531e-01,-5.222632e-08,1.760480e-06
1.350000e-11,7.688330e-08,7.301123e-01,-6.599268e-08,1.598183e-06
1.375000e-11,1.199603e-08,7.300676e-01,-6.132181e-08,1.438251e-06
1.400000e-11,-3.748643e-08,7.300302e-01,-4.448446e-08,1.287321e-06
1.425000e-11,-6.411471e-08,7.300066e-01,-2.206486e-08,1.149949e-06
1.450000e-11,-6.835187e-08,7.299988e-01,1.496848e-10,1.028683e-06
1.475000e-11,-5.624363e-08,7.300052e-01,1.788196e-08,9.242979e-07
1.500000e-11,-3.608723e-08,7.300219e-01,2.871037e-08,8.360680e-07
1.525000e-11,-1.542497e-08,7.300437e-01,3.207561e-08,7.620933e-07
1.550000e-11,7.856974e-10,7.300657e-01,2.899120e-08,6.996888e-07
1.575000e-11,1.061351e-08,7.300839e-01,2.153345e-08,6.458458e-07
1.600000e-11,1.452412e-08,7.300961e-01,1.222087e-08,5.977100e-07
1.625000e-11,1.425768e-08,7.301020e-01,3.412199e-09,5.529879e-07
1.650000e-11,1.176504e-08,7.301023e-01,-3.158296e-09,5.101956e-07
1.675000e-11,8.538725e-09,7.300991e-01,-6.628779e-09,4.687040e-07
1.700000e-11,5.410230e-09,7.300944e-01,-7.019496e-09,4.285929e-07
1.725000e-11,2.685279e-09,7.300903e-01,-5.041049e-09,3.903789e-07
1.750000e-11,4.100827e-10,7.300880e-01,-1.781294e-09,3.547071e-07
1.775000e-11,-1.406964e-09,7.300881e-01,1.632246e-09,3.220943e-07
1.800000e-11,-2.702000e-09,7.300903e-01,4.308122e-09,2.927773e-07
1.825000e-11,-3.381372e-09,7.300940e-01,5.749773e-09,2.666819e-07
1.850000e-11,-3.401713e-09,7.300982e-01,5.882539e-09,2.434877e-07
1.875000e-11,-2.833909e-09,7.301021e-01,4.970556e-09,2.227447e-07
1.900000e-11,-1.870078e-09,7.301051e-01,3.469003e-09,2.039934e-07
1.925000e-11,-7.731427e-10,7.301071e-01,1.863953e-09,1.868519e-07
1.950000e-11,2.018966e-10,7.301080e-01,5.436477e-10,1.710560e-07
1.975000e-11,8.776190e-10,7.301082e-01,-2.733715e-10,1.564539e-07
2.000000e-11,1.188341e-09,7.301080e-01,-5.487444e-10,1.429731e-07
2.025000e-11,1.172421e-09,7.301077e-01,-3.861710e-10,1.305777e-07
2.050000e-11,9.343846e-10,7.301076e-01,3.288697e-11,1.192338e-07
2.075000e-11,5.973045e-10,7.301079e-01,5.160442e-10,1.088898e-07
2.100000e-11,2.641545e-10,7.301084e-01,9.112460e-10,9.947325e-08
2.125000e-11,-1.759514e-12,7.301092e-01,1.133326e-09,9.089848e-08
2.150000e-11,-1.772365e-10,7.301100e-01,1.165850e-09,8.307818e-08
2.175000e-11,-2.674071e-10,7.301108e-01,1.044840e-09,7.593327e-08
2.200000e-11,-2.907070e-10,7.301115e-01,8.339473e-10,6.939761e-08
2.225000e-11,-2.673668e-10,7.301121e-01,6.001073e-10,6.341772e-08
2.250000e-11,-2.140634e-10,7.301124e-01,3.958984e-10,5.794929e-08
2.275000e-11,-1.436778e-10,7.301127e-01,2.510990e-10,5.295275e-08
2.300000e-11,-6.726160e-11,7.301129e-01,1.727009e-10,4.839019e-08
2.325000e-11,4.501585e-12,7.301130e-01,1.506144e-10,4.422418e-08
2.350000e-11,6.162004e-11,7.301131e-01,1.656945e-10,4.041831e-08
2.375000e-11,9.658431e-11,7.301133e-01,1.972414e-10,3.693867e-08
2.400000e-11,1.063628e-10,7.301134e-01,2.282633e-10,3.375516e-08
2.425000e-11,9.332374e-11,7.301136e-01,2.479890e-10,3.084196e-08
2.450000e-11,6.447505e-11,7.301138e-01,2.520272e-10,2.817716e-08
2.475000e-11,2.927877e-11,7.301140e-01,2.410284e-10,2.574167e-08
2.500000e-11,-3.093491e-12,7.301142e-01,2.187473e-10,2.351800e-08
2.525000e-11,-2.606784e-11,7.301143e-01,1.901858e-10,2.148928e-08
2.550000e-11,-3.684662e-11,7.301144e-01,1.601893e-10,1.963888e-08
2.575000e-11,-3.628544e-11,7.301146e-01,1.325928e-10,1.795050e-08
2.600000e-11,-2.777415e-11,7.301146e-01,1.098509e-10,1.640863e-08
2.625000e-11,-1.568863e-11,7.301147e-01,9.301696e-11,1.499906e-08
2.650000e-11,-3.980958e-12,7.301148e-01,8.194454e-11,1.370929e-08
2.675000e-11,4.716411e-12,7.301149e-01,7.561187e-11,1.252859e-08
2.700000e-11,9.361179e-12,7.301149e-01,7.250077e-11,1.144782e-08
2.725000e-11,1.025805e-11,7.301150e-01,7.097325e-11,1.045906e-08
2.750000e-11,8.532815e-12,7.301150e-01,6.959482e-11,9.555240e-09
2.775000e-11,5.562996e-12,7.301151e-01,6.736060e-11,8.729732e-09
2.800000e-11,2.536589e-12,7.301151e-01,6.379588e-11,7.976202e-09
2.825000e-11,2.144948e-13,7.301152e-01,5.892874e-11,7.288530e-09
2.850000e-11,-1.111286e-12,7.301152e-01,5.316001e-11,6.660859e-09
2.875000e-11,-1.522099e-12,7.301152e-01,4.707722e-11,6.087698e-09
2.900000e-11,-1.313359e-12,7.301153e-01,4.126684e-11,5.564015e-09
2.925000e-11,-8.350898e-13,7.301153e-01,3.617055e-11,5.085290e-09
2.950000e-11,-3.733627e-13,7.301153e-01,3.201214e-11,4.647514e-09
2.975000e-11,-8.965201e-14,7.301154e-01,2.879707e-11,4.247142e-09
3.000000e-11,-1.551273e-14,7.301154e-01,2.636734e-11,3.881019e-09
3.025000e-11,-8.723326e-14,7.301154e-01,2.448275e-11,3.546301e-09
3.050000e-11,-1.993969e-13,7.301154e-01,2.290012e-11,3.240392e-09
3.075000e-11,-2.567327e-13,7.301154e-01,2.142950e-11,2.960891e-09
3.100000e-11,-2.089289e-13,7.301154e-01,1.995931e-11,2.705566e-09
3.125000e-11,-6.137415e-14,7.301155e-01,1.845300e-11,2.472341e-09
3.150000e-11,1.364998e-13,7.301155e-01,1.692763e-11,2.259295e-09
3.175000e-11,3.168036e-13,7.301155e-01,1.542646e-11,2.064660e-09
3.200000e-11,4.212068e-13,7.301155e-01,1.399546e-11,1.886817e-09
3.225000e-11,4.211309e-13,7.301155e-01,1.266902e-11,1.724295e-09
3.250000e-11,3.243227e-13,7.301155e-01,1.146512e-11,1.575757e-09
3.275000e-11,1.677647e-13,7.301155e-01,1.038741e-11,1.439993e-09
3.300000e-11,1.657149e-15,7.301155e-01,9.430250e-12,1.315905e-09
3.325000e-11,-1.284903e-13,7.301155e-01,8.583449e-12,1.202492e-09
3.350000e-11,-1.952143e-13,7.301155e-01,7.835203e-12,1.098844e-09
3.375000e-11,-1.942168e-13,7.301156e-01,7.173105e-12,1.004127e-09
3.400000e-11,-1.411164e-13,7.301156e-01,6.584165e-12,9.175761e-10
3.425000e-11,-6.258703e-14,7.301156e-01,6.054898e-12,8.384912e-10
3.450000e-11,1.402274e-14,7.301156e-01,5.572064e-12,7.662286e-10
3.475000e-11,6.888941e-14,7.301156e-01,5.124051e-12,7.001991e-10
3.500000e-11,9.357335e-14,7.301156e-01,4.702343e-12,6.398629e-10
3.525000e-11,9.040221e-14,7.301156e-01,4.302464e-12,5.847272e-10
3.550000e-11,6.870340e-14,7.301156e-01,3.923918e-12,5.343422e-10
3.575000e-11,3.998028e-14,7.301156e-01,3.569126e-12,4.882976e-10
3.600000e-11,1.386259e-14,7.301156e-01,3.241720e-12,4.462193e-10
3.625000e-11,-4.091793e-15,7.301156e-01,2.944760e-12,4.077659e-10
3.650000e-11,-1.260433e-14,7.301156e-01,2.679408e-12,3.726255e-10
3.675000e-11,-1.348256e-14,7.301156e-01,2.444411e-12,3.405132e-10
3.700000e-11,-9.876578e-15,7.301156e-01,2.236382e-12,3.111682e-10
3.725000e-11,-4.774799e-15,7.301156e-01,2.050678e-12,2.843521e-10
3.750000e-11,-1.609138e-16,7.301156e-01,1.882473e-12,2.598470e-10
3.775000e-11,3.139792e-15,7.301156e-01,1.727698e-12,2.374538e-10
3.800000e-11,5.131375e-15,7.301156e-01,1.583578e-12,2.169904e-10
3.825000e-11,6.168655e-15,7.301156e-01,1.448715e-12,1.982906e-10
3.850000e-11,6.588807e-15,7.301156e-01,1.322804e-12,1.812024e-10
3.875000e-11,6.550003e-15,7.301156e-01,1.206128e-12,1.655870e-10
3.900000e-11,6.070989e-15,7.301156e-01,1.099072e-12,1.513176e-10
3.925000e-11,5.159107e-15,7.301156e-01,1.001751e-12,1.382779e-10
3.950000e-11,3.913998e-15,7.301156e-01,9.138460e-13,1.263620e-10
3.975000e-11,2.552260e-15,7.301156e-01,8.346306e-13,1.154729e-10
4.000000e-11,1.350119e-15,7.301156e-01,7.631147e-13,1.055220e-10
4.025000e-11,5.382063e-16,7.301156e-01,6.982378e-13,9.642845e-11
4.050000e-11,2.214209e-16,7.301156e-01,6.390356e-13,8.811842e-11
4.075000e-11,3.463812e-16,7.301156e-01,5.847355e-13,8.052444e-11
4.100000e-11,7.377043e-16,7.301156e-01,5.347834e-13,7.358489e-11
4.125000e-11,1.173092e-15,7.301156e-01,4.888088e-13,6.724343e-11
4.150000e-11,1.468832e-15,7.301156e-01,4.465591e-13,6.144855e-11
4.175000e-11,1.535258e-15,7.301156e-01,4.078347e-13,5.615315e-11
4.200000e-11,1.381908e-15,7.301156e-01,3.724396e-13,5.131415e-11
4.225000e-11,1.098335e-15,7.301156e-01,3.401551e-13,4.689218e-11
4.250000e-11,8.021575e-16,7.301156e-01,3.107380e-13,4.285126e-11
4.275000e-11,5.855596e-16,7.301156e-01,2.839327e-13,3.915854e-11
4.300000e-11,4.895375e-16,7.301156e-01,2.594891e-13,3.578400e-11
4.325000e-11,5.009374e-16,7.301156e-01,2.371736e-13,3.270023e-11
4.350000e-11,5.686790e-16,7.301156e-01,2.167810e-13,2.988220e-11
4.375000e-11,6.299534e-16,7.301156e-01,1.981338e-13,2.730701e-11
4.400000e-11,6.394899e-16,7.301156e-01,1.810790e-13,2.495376e-11
4.425000e-11,5.833674e-16,7.301156e-01,1.654832e-13,2.280332e-11
4.450000e-11,4.745203e-16,7.301156e-01,1.512252e-13,2.083822e-11
4.475000e-11,3.484639e-16,7.301156e-01,1.381930e-13,1.904246e-11
4.500000e-11,2.408226e-16,7.301156e-01,1.262842e-13,1.740146e-11
4.525000e-11,1.742868e-16,7.301156e-01,1.154004e-13,1.590187e-11
4.550000e-11,1.574061e-16,7.301156e-01,1.054531e-13,1.453150e-11
4.575000e-11,1.771367e-16,7.301156e-01,9.636156e-14,1.327922e-11
4.600000e-11,2.152825e-16,7.301156e-01,8.805087e-14,1.213486e-11
4.625000e-11,2.459745e-16,7.301156e-01,8.045696e-14,1.108912e-11
4.650000e-11,2.574840e-16,7.301156e-01,7.351733e-14,1.013350e-11
4.675000e-11,2.444399e-16,7.301156e-01,6.717812e-14,9.260226e-12
4.700000e-11,2.100210e-16,7.301156e-01,6.138911e-14,8.462212e-12
4.725000e-11,1.678195e-16,7.301156e-01,5.610137e-14,7.732968e-12
4.750000e-11,1.270430e-16,7.301156e-01,5.127061e-14,7.066568e-12
4.775000e-11,9.777596e-17,7.301156e-01,4.685749e-14,6.457595e-12
4.800000e-11,8.133382e-17,7.301156e-01,4.282335e-14,5.901100e-12
4.825000e-11,7.694925e-17,7.301156e-01,3.913538e-14,5.392561e-12
4.850000e-11,8.001845e-17,7.301156e-01,3.576320e-14,4.927849e-12
4.875000e-11,8.462225e-17,7.301156e-01,3.267975e-14,4.503183e-12
4.900000e-11,8.615685e-17,7.301156e-01,2.986102e-14,4.115113e-12
4.925000e-11,8.286842e-17,7.301156e-01,2.728519e-14,3.760491e-12
4.950000e-11,7.563387e-17,7.301156e-01,2.493161e-14,3.436422e-12
4.975000e-11,6.478206e-17,7.301156e-01,2.278213e-14,3.140285e-12
5.000000e-11,5.458793e-17,7.301156e-01,2.081910e-14,2.869666e-12
5.025000e-11,4.581878e-17,7.301156e-01,1.902597e-14,2.622368e-12
5.050000e-11,4.154382e-17,7.301156e-01,1.738713e-14,2.396381e-12
5.075000e-11,3.792655e-17,7.301156e-01,1.588991e-14,2.189868e-12
5.100000e-11,3.661118e-17,7.301156e-01,1.452137e-14,2.001151e-12
5.125000e-11,3.507658e-17,7.301156e-01,1.327013e-14,1.828699e-12
5.150000e-11,3.376121e-17,7.301156e-01,1.212685e-14,1.671109e-12
5.175000e-11,3.113046e-17,7.301156e-01,1.108168e-14,1.527098e-12
5.200000e-11,2.729396e-17,7.301156e-01,1.012562e-14,1.395499e-12
5.225000e-11,2.455361e-17,7.301156e-01,9.253476e-15,1.275239e-12
5.250000e-11,2.192286e-17,7.301156e-01,8.455100e-15,1.165344e-12
5.275000e-11,1.929212e-17,7.301156e-01,7.726329e-15,1.064918e-12
5.300000e-11,1.753829e-17,7.301156e-01,7.060477e-15,9.731479e-13
5.325000e-11,1.600369e-17,7.301156e-01,6.452775e-15,8.892843e-13
5.350000e-11,1.534600e-17,7.301156e-01,5.896373e-15,8.126490e-13
5.375000e-11,1.446909e-17,7.301156e-01,5.388311e-15,7.426179e-13
5.400000e-11,1.315372e-17,7.301156e-01,4.923875e-15,6.786213e-13
5.425000e-11,1.227680e-17,7.301156e-01,4.499722e-15,6.201405e-13
5.450000e-11,1.161912e-17,7.301156e-01,4.112510e-15,5.666983e-13
5.475000e-11,9.865288e-18,7.301156e-01,3.757633e-15,5.178636e-13
5.500000e-11,8.988373e-18,7.301156e-01,3.434052e-15,4.732346e-13
5.525000e-11,8.330688e-18,7.301156e-01,3.137710e-15,4.324540e-13
5.550000e-11,7.124930e-18,7.301156e-01,2.867730e-15,3.951856e-13
5.575000e-11,7.673002e-18,7.301156e-01,2.620111e-15,3.611294e-13
5.600000e-11,6.138401e-18,7.301156e-01,2.394470e-15,3.300092e-13
5.625000e-11,5.919173e-18,7.301156e-01,2.188121e-15,3.015697e-13
5.650000e-11,4.603801e-18,7.301156e-01,1.999420e-15,2.755811e-13
5.675000e-11,5.261487e-18,7.301156e-01,1.827380e-15,2.518336e-13
5.700000e-11,4.713415e-18,7.301156e-01,1.670138e-15,2.301311e-13
5.725000e-11,4.165344e-18,7.301156e-01,1.525831e-15,2.102997e-13
5.750000e-11,3.726887e-18,7.301156e-01,1.395007e-15,1.921765e-13
5.775000e-11,3.069201e-18,7.301156e-01,1.274047e-15,1.756149e-13
5.800000e-11,2.630743e-18,7.301156e-01,1.164542e-15,1.604813e-13
5.825000e-11,3.178815e-18,7.301156e-01,1.064136e-15,1.466505e-13
5.850000e-11,2.411515e-18,7.301156e-01,9.723337e-16,1.340145e-13
5.875000e-11,2.411515e-18,7.301156e-01,8.888076e-16,1.224640e-13
5.900000e-11,2.192286e-18,7.301156e-01,8.121324e-16,1.119111e-13
5.925000e-11,2.082672e-18,7.301156e-01,7.421985e-16,1.022677e-13
5.950000e-11,1.863443e-18,7.301156e-01,6.779097e-16,9.345387e-14
5.975000e-11,1.973058e-18,7.301156e-01,6.194305e-16,8.540062e-14
6.000000e-11,1.753829e-18,7.301156e-01,5.663223e-16,7.804155e-14
6.025000e-11,1.315372e-18,7.301156e-01,5.173795e-16,7.131551e-14
6.050000e-11,1.096143e-18,7.301156e-01,4.733694e-16,6.517020e-14
6.075000e-11,1.096143e-18,7.301156e-01,4.317708e-16,5.955356e-14
6.100000e-11,9.865288e-19,7.301156e-01,3.952692e-16,5.442142e-14
6.125000e-11,1.096143e-18,7.301156e-01,3.610695e-16,4.973135e-14
6.150000e-11,1.315372e-18,7.301156e-01,3.296102e-16,4.544587e-14
6.175000e-11,1.753829e-18,7.301156e-01,3.015490e-16,4.153089e-14
6.200000e-11,7.673002e-19,7.301156e-01,2.752415e-16,3.795001e-14
6.225000e-11,8.769145e-19,7.301156e-01,2.521129e-16,3.468087e-14
6.250000e-11,2.192286e-19,7.301156e-01,2.295324e-16,3.169224e-14
6.275000e-11,6.576859e-19,7.301156e-01,2.102402e-16,2.896076e-14
6.300000e-11,6.576859e-19,7.301156e-01,1.920443e-16,2.646495e-14
6.325000e-11,6.576859e-19,7.301156e-01,1.756021e-16,2.418497e-14
6.350000e-11,-4.384572e-19,7.301156e-01,1.605850e-16,2.210055e-14
6.375000e-11,6.576859e-19,7.301156e-01,1.463351e-16,2.019457e-14
6.400000e-11,7.673002e-19,7.301156e-01,1.340583e-16,1.845510e-14
6.425000e-11,4.384572e-19,7.301156e-01,1.221103e-16,1.686581e-14
6.450000e-11,0.000000e+00,7.301156e-01,1.119162e-16,1.541046e-14
6.475000e-11,8.769145e-19,7.301156e-01,1.021605e-16,1.408336e-14
6.500000e-11,1.096143e-18,7.301156e-01,9.328178e-17,1.287047e-14
6.525000e-11,0.000000e+00,7.301156e-01,8.571839e-17,1.176096e-14
6.550000e-11,4.384572e-19,7.301156e-01,7.853865e-17,1.074713e-14
6.575000e-11,7.673002e-19,7.301156e-01,7.146853e-17,9.820784e-15
6.600000e-11,4.384572e-19,7.301156e-01,6.500129e-17,8.974562e-15
6.625000e-11,4.384572e-19,7.301156e-01,5.952057e-17,8.200904e-15
6.650000e-11,0.000000e+00,7.301156e-01,5.420428e-17,7.495646e-15
6.675000e-11,-4.384572e-19,7.301156e-01,4.965528e-17,6.847496e-15
6.700000e-11,2.192286e-19,7.301156e-01,4.521590e-17,6.258210e-15
6.725000e-11,-2.192286e-19,7.301156e-01,4.187267e-17,5.719675e-15
6.750000e-11,4.384572e-19,7.301156e-01,3.776213e-17,5.226630e-15
6.775000e-11,1.096143e-19,7.301156e-01,3.463812e-17,4.775347e-15
6.800000e-11,6.576859e-19,7.301156e-01,3.211699e-17,4.364513e-15
6.825000e-11,2.192286e-19,7.301156e-01,2.899298e-17,3.989303e-15
6.850000e-11,0.000000e+00,7.301156e-01,2.663628e-17,3.644237e-15
6.875000e-11,-1.096143e-19,7.301156e-01,2.433438e-17,3.330631e-15
6.900000e-11,1.096143e-19,7.301156e-01,2.181325e-17,3.043332e-15
6.925000e-11,0.000000e+00,7.301156e-01,2.049788e-17,2.780257e-15
6.950000e-11,2.192286e-19,7.301156e-01,1.819598e-17,2.542285e-15
6.975000e-11,2.192286e-19,7.301156e-01,1.699022e-17,2.322070e-15
7.000000e-11,2.192286e-19,7.301156e-01,1.540081e-17,2.123448e-15
7.025000e-11,2.192286e-19,7.301156e-01,1.435947e-17,1.938529e-15
7.050000e-11,4.384572e-19,7.301156e-01,1.277007e-17,1.773998e-15
7.075000e-11,0.000000e+00,7.301156e-01,1.167392e-17,1.619880e-15
7.100000e-11,3.288429e-19,7.301156e-01,1.096143e-17,1.479574e-15
7.125000e-11,3.288429e-19,7.301156e-01,1.008452e-17,1.352312e-15
7.150000e-11,-2.192286e-19,7.301156e-01,8.988373e-18,1.235682e-15
7.175000e-11,5.480715e-19,7.301156e-01,8.330688e-18,1.129685e-15
7.200000e-11,0.000000e+00,7.301156e-01,7.124930e-18,1.031799e-15
7.225000e-11,1.096143e-19,7.301156e-01,7.070123e-18,9.439984e-16
7.250000e-11,-1.096143e-19,7.301156e-01,6.028787e-18,8.615685e-16
7.275000e-11,1.096143e-19,7.301156e-01,5.919173e-18,7.880173e-16
7.300000e-11,0.000000e+00,7.301156e-01,5.590330e-18,7.197276e-16
7.325000e-11,4.384572e-19,7.301156e-01,4.877837e-18,6.586724e-16
7.350000e-11,0.000000e+00,7.301156e-01,4.000922e-18,6.004672e-16
7.375000e-11,1.096143e-19,7.301156e-01,3.946115e-18,5.490581e-16
7.400000e-11,1.096143e-19,7.301156e-01,3.726887e-18,5.021432e-16
7.425000e-11,1.096143e-19,7.301156e-01,3.343236e-18,4.578590e-16
7.450000e-11,1.096143e-19,7.301156e-01,3.069201e-18,4.187267e-16
7.475000e-11,-1.096143e-19,7.301156e-01,3.069201e-18,3.837597e-16
7.500000e-11,1.096143e-19,7.301156e-01,2.685551e-18,3.504369e-16
7.525000e-11,0.000000e+00,7.301156e-01,1.808636e-18,3.200738e-16
7.550000e-11,0.000000e+00,7.301156e-01,2.082672e-18,2.925606e-16
7.575000e-11,0.000000e+00,7.301156e-01,2.247093e-18,2.671301e-16
7.600000e-11,4.384572e-19,7.301156e-01,1.753829e-18,2.443303e-16
7.625000e-11,0.000000e+00,7.301156e-01,1.753829e-18,2.227363e-16
