time,"I(RX1)","I(RX2)","I(RIN)","I(LQ2|XI0)","I(LQ2|XI1)","I(LQ2|XI2)","I(LQ2|XI3)","I(LQ2|XI4)","I(LQ2|XI8)","I(LOUT)"
0.000000e+00,1.515570e-23,-7.635428e-24,-2.407432e-08,8.647837e-06,8.502307e-06,8.263163e-06,7.880593e-06,7.287883e-06,1.860962e-06,2.369445e-07
2.000000e-13,-5.125988e-08,-1.639431e-22,-1.044635e-06,9.754507e-06,9.700263e-06,9.430789e-06,8.993785e-06,8.317023e-06,2.124265e-06,2.703957e-07
4.000000e-13,-7.937433e-08,-2.645688e-11,-2.091680e-06,1.177743e-05,1.186962e-05,1.154730e-05,1.101236e-05,1.018403e-05,2.603245e-06,3.307499e-07
6.000000e-13,-9.229064e-08,-1.657008e-10,-3.142854e-06,1.496715e-05,1.531260e-05,1.491263e-05,1.422410e-05,1.315710e-05,3.369696e-06,4.259113e-07
8.000000e-13,-1.014096e-07,-6.230965e-10,-4.205745e-06,1.960704e-05,2.037526e-05,1.987412e-05,1.896508e-05,1.755289e-05,4.513471e-06,5.639151e-07
1.000000e-12,-1.053789e-07,-1.791924e-09,-5.283512e-06,2.604236e-05,2.746577e-05,2.684742e-05,2.564398e-05,2.376485e-05,6.158787e-06,7.516084e-07
1.200000e-12,-1.008499e-07,-4.203365e-09,-5.391754e-06,3.474775e-05,3.699319e-05,3.625749e-05,3.469439e-05,3.223139e-05,8.477795e-06,9.886605e-07
1.400000e-12,-8.860612e-08,-8.060823e-09,-5.490038e-06,4.591401e-05,4.916942e-05,4.835444e-05,4.641194e-05,4.330514e-05,1.170380e-05,1.254408e-06
1.600000e-12,-7.362094e-08,-1.214639e-08,-5.579810e-06,5.941087e-05,6.367788e-05,6.287485e-05,6.063568e-05,5.697219e-05,1.614167e-05,1.489392e-06
1.800000e-12,-6.273436e-08,-1.298582e-08,-5.620427e-06,7.435950e-05,7.933097e-05,7.867929e-05,7.636974e-05,7.246675e-05,2.216379e-05,1.590222e-06
2.000000e-12,-6.077830e-08,-6.642163e-09,-5.575154e-06,8.901614e-05,9.408243e-05,9.372823e-05,9.168609e-05,8.807054e-05,3.016464e-05,1.448264e-06
2.200000e-12,-6.614243e-08,6.522225e-09,-5.431655e-06,1.011456e-04,1.055687e-04,1.056076e-04,1.041775e-04,1.014338e-04,4.042920e-05,1.018248e-06
2.400000e-12,-7.138514e-08,1.957117e-08,-5.211736e-06,1.087209e-04,1.118731e-04,1.123111e-04,1.117321e-04,1.103125e-04,5.287823e-05,3.518282e-07
2.600000e-12,-7.007059e-08,2.395427e-08,-4.961162e-06,1.105579e-04,1.121080e-04,1.128545e-04,1.131908e-04,1.132822e-04,6.674692e-05,-4.238296e-07
2.800000e-12,-6.313014e-08,1.692303e-08,-4.732633e-06,1.066403e-04,1.066338e-04,1.075265e-04,1.086551e-04,1.101370e-04,8.043597e-05,-1.152093e-06
3.000000e-12,-5.826547e-08,4.037253e-09,-4.569482e-06,9.806868e-05,9.688648e-05,9.773892e-05,9.939553e-05,1.018935e-04,9.180286e-05,-1.695794e-06
3.200000e-12,-6.226441e-08,-5.146351e-09,-4.492843e-06,8.666801e-05,8.488900e-05,8.554122e-05,8.740605e-05,9.041898e-05,9.882638e-05,-1.978339e-06
3.400000e-12,-7.457305e-08,-4.740318e-09,-4.498179e-06,7.442480e-05,7.266144e-05,7.301144e-05,7.479491e-05,7.784028e-05,1.002791e-04,-1.999419e-06
3.600000e-12,-8.879922e-08,3.251019e-09,-4.563487e-06,6.300723e-05,6.178738e-05,6.179624e-05,6.328925e-05,6.600104e-05,9.610193e-05,-1.816914e-06
3.800000e-12,-9.910542e-08,1.150556e-08,-4.662434e-06,5.353419e-05,5.325760e-05,5.293685e-05,5.401795e-05,5.617454e-05,8.735736e-05,-1.510736e-06
4.000000e-12,-1.042718e-07,1.305426e-08,-4.774097e-06,4.659047e-05,4.754163e-05,4.693680e-05,4.755174e-05,4.905092e-05,7.580610e-05,-1.151701e-06
4.200000e-12,-1.067098e-07,5.258744e-09,-4.886359e-06,4.238001e-05,4.476128e-05,4.394100e-05,4.407494e-05,4.488859e-05,6.332292e-05,-7.868573e-07
4.400000e-12,-1.091274e-07,-9.404963e-09,-4.994651e-06,4.090369e-05,4.485752e-05,4.391087e-05,4.356772e-05,4.370129e-05,5.142837e-05,-4.395714e-07
4.600000e-12,-1.121352e-07,-2.504138e-08,-5.098738e-06,4.209095e-05,4.769197e-05,4.673183e-05,4.592714e-05,4.539685e-05,4.108898e-05,-1.176837e-07
4.800000e-12,-1.139301e-07,-3.521384e-08,-5.199094e-06,4.585497e-05,5.306071e-05,5.222754e-05,5.099730e-05,4.983006e-05,3.276087e-05,1.754559e-07
5.000000e-12,-1.116308e-07,-3.563631e-08,-5.293207e-06,5.206036e-05,6.062028e-05,6.007675e-05,5.850043e-05,5.675733e-05,2.655749e-05,4.296122e-07
5.200000e-12,-1.033464e-07,-2.564091e-08,-5.372216e-06,6.040504e-05,6.975853e-05,6.966327e-05,6.789045e-05,6.570602e-05,2.242905e-05,6.190400e-07
5.400000e-12,-8.994296e-08,-8.197322e-09,-5.419833e-06,7.025638e-05,7.950057e-05,7.995794e-05,7.821507e-05,7.582705e-05,2.029395e-05,7.034298e-07
5.600000e-12,-7.527890e-08,1.108854e-08,-5.416874e-06,8.054925e-05,8.856700e-05,8.957260e-05,8.812876e-05,8.586437e-05,2.011035e-05,6.441253e-07
5.800000e-12,-6.414127e-08,2.567673e-08,-5.351404e-06,8.987608e-05,9.562086e-05,9.703570e-05,9.613424e-05,9.434369e-05,2.189896e-05,4.281262e-07
6.000000e-12,-5.898497e-08,3.054581e-08,-5.227694e-06,9.679046e-05,9.960240e-05,1.011736e-04,1.009623e-04,9.992925e-05,2.572944e-05,8.189368e-08
6.200000e-12,-5.785108e-08,2.479524e-08,-5.066910e-06,1.001917e-04,9.999957e-05,1.014199e-04,1.019095e-04,1.017791e-04,3.167264e-05,-3.337872e-07
6.400000e-12,-5.517953e-08,1.259972e-08,-4.900096e-06,9.961752e-05,9.695477e-05,9.793857e-05,9.900308e-05,9.975182e-05,3.971023e-05,-7.421809e-07
6.600000e-12,-4.582988e-08,1.212928e-09,-4.758330e-06,9.534003e-05,9.118588e-05,9.153579e-05,9.295105e-05,9.440548e-05,4.959682e-05,-1.072881e-06
6.800000e-12,-3.057256e-08,-3.177007e-09,-4.663761e-06,8.824665e-05,8.376204e-05,8.340422e-05,8.490886e-05,8.680306e-05,6.069956e-05,-1.280544e-06
7.000000e-12,-1.859532e-08,8.685447e-10,-4.624316e-06,7.956056e-05,7.582297e-05,7.480361e-05,7.615837e-05,7.820653e-05,7.189961e-05,-1.353642e-06
7.200000e-12,-2.221047e-08,9.446865e-09,-4.634154e-06,7.051660e-05,6.834316e-05,6.679721e-05,6.782254e-05,6.977848e-05,8.168655e-05,-1.310373e-06
7.400000e-12,-4.612874e-08,1.616317e-08,-4.679101e-06,6.211431e-05,6.200595e-05,6.011782e-05,6.070405e-05,6.239121e-05,8.850456e-05,-1.185566e-06
7.600000e-12,-8.210872e-08,1.615504e-08,-4.743466e-06,5.501111e-05,5.719184e-05,5.516414e-05,5.526186e-05,5.657401e-05,9.121473e-05,-1.016252e-06
7.800000e-12,-1.148984e-07,8.652664e-09,-4.814900e-06,4.954349e-05,5.404214e-05,5.207864e-05,5.168148e-05,5.256552e-05,8.943902e-05,-8.318064e-07
8.000000e-12,-1.334917e-07,-3.035790e-09,-4.886147e-06,4.581967e-05,5.254744e-05,5.084800e-05,4.997810e-05,5.041232e-05,8.363337e-05,-6.504060e-07
8.200000e-12,-1.377058e-07,-1.363185e-08,-4.954385e-06,4.382483e-05,5.262159e-05,5.138256e-05,5.008422e-05,5.006166e-05,7.488255e-05,-4.804756e-07
8.400000e-12,-1.355894e-07,-1.876636e-08,-5.019441e-06,4.350032e-05,5.414145e-05,5.355368e-05,5.189617e-05,5.141828e-05,6.453091e-05,-3.247506e-07
8.600000e-12,-1.354866e-07,-1.716002e-08,-5.081861e-06,4.478191e-05,5.694975e-05,5.718655e-05,5.527391e-05,5.435555e-05,5.381851e-05,-1.848761e-07
8.800000e-12,-1.397010e-07,-1.107041e-08,-5.141318e-06,4.759758e-05,6.083199e-05,6.202139e-05,6.000313e-05,5.868680e-05,4.365547e-05,-6.505693e-08
9.000000e-12,-1.435351e-07,-4.856669e-09,-5.195527e-06,5.183385e-05,6.548644e-05,6.766894e-05,6.574210e-05,6.411538e-05,3.457190e-05,2.635412e-08
9.200000e-12,-1.391271e-07,-2.464312e-09,-5.239809e-06,5.728437e-05,7.050990e-05,7.359343e-05,7.198624e-05,7.019281e-05,2.679620e-05,7.807037e-08
9.400000e-12,-1.212685e-07,-5.198391e-09,-5.267535e-06,6.360042e-05,7.541625e-05,7.914931e-05,7.808321e-05,7.631754e-05,2.038063e-05,7.971647e-08
9.600000e-12,-9.184252e-08,-1.106776e-08,-5.271582e-06,7.026659e-05,7.969119e-05,8.367414e-05,8.331280e-05,8.179429e-05,1.530726e-05,2.673798e-08
9.800000e-12,-6.006294e-08,-1.616199e-08,-5.246623e-06,7.662337e-05,8.287011e-05,8.661124e-05,8.701456e-05,8.594663e-05,1.154530e-05,-7.600256e-08
1.000000e-11,-3.787791e-08,-1.721271e-08,-5.191615e-06,8.194693e-05,8.461594e-05,8.761997e-05,8.872103e-05,8.824828e-05,9.065906e-06,-2.137533e-07
1.020000e-11,-3.322879e-08,-1.359292e-08,-5.111405e-06,8.557463e-05,8.477307e-05,8.663601e-05,8.825039e-05,8.842842e-05,7.836109e-06,-3.648262e-07
1.040000e-11,-4.562640e-08,-7.424252e-09,-5.016395e-06,8.703969e-05,8.338184e-05,8.386358e-05,8.572778e-05,8.651530e-05,7.808674e-06,-5.058253e-07
1.060000e-11,-6.681118e-08,-1.906287e-09,-4.920062e-06,8.616698e-05,8.065103e-05,7.970584e-05,8.153145e-05,8.280604e-05,8.912933e-06,-6.172044e-07
1.080000e-11,-8.562487e-08,7.972175e-10,-4.835334e-06,8.309516e-05,7.689934e-05,7.466010e-05,7.618575e-05,7.777618e-05,1.104502e-05,-6.872024e-07
1.100000e-11,-9.376521e-08,6.892373e-10,-4.771322e-06,7.821941e-05,7.248459e-05,6.921267e-05,7.023906e-05,7.196202e-05,1.405831e-05,-7.129818e-07
1.120000e-11,-8.926530e-08,-4.401616e-10,-4.731545e-06,7.207847e-05,6.774009e-05,6.376200e-05,6.416387e-05,6.585342e-05,1.776099e-05,-6.990472e-07
1.140000e-11,-7.643059e-08,-3.851919e-10,-4.714068e-06,6.522565e-05,6.293090e-05,5.858252e-05,5.830095e-05,5.982415e-05,2.192790e-05,-6.541028e-07
1.160000e-11,-6.291816e-08,2.104555e-09,-4.713191e-06,5.812302e-05,5.823372e-05,5.382468e-05,5.284908e-05,5.410780e-05,2.632444e-05,-5.878155e-07
1.180000e-11,-5.573444e-08,6.723225e-09,-4.721813e-06,5.108299e-05,5.373697e-05,4.953746e-05,4.788689e-05,4.881053e-05,3.072868e-05,-5.085263e-07
1.200000e-11,-5.806821e-08,1.196264e-08,-4.733548e-06,4.426111e-05,4.945391e-05,4.569796e-05,4.340853e-05,4.394372e-05,3.493745e-05,-4.222283e-07
1.220000e-11,-6.825368e-08,1.606402e-08,-4.744050e-06,3.768798e-05,4.534166e-05,4.223792e-05,3.935806e-05,3.946018e-05,3.875434e-05,-3.325804e-07
1.240000e-11,-8.110260e-08,1.796517e-08,-4.751371e-06,3.132008e-05,4.132066e-05,3.906248e-05,3.565477e-05,3.528370e-05,4.197267e-05,-2.415059e-07
1.260000e-11,-9.079054e-08,1.774056e-08,-4.755568e-06,2.509033e-05,3.729187e-05,3.606205e-05,3.220811e-05,3.132840e-05,4.437072e-05,-1.499739e-07
1.280000e-11,-9.380834e-08,1.636084e-08,-4.757936e-06,1.894552e-05,3.315087e-05,3.311980e-05,2.892541e-05,2.750979e-05,4.572864e-05,-5.871977e-08
1.300000e-11,-9.049139e-08,1.496342e-08,-4.760223e-06,1.286643e-05,2.879985e-05,3.011798e-05,2.571643e-05,2.375143e-05,4.586119e-05,3.119032e-08
1.320000e-11,-8.442560e-08,1.405334e-08,-4.764102e-06,6.873177e-06,2.415911e-05,2.694503e-05,2.249799e-05,1.999069e-05,4.464991e-05,1.179687e-07
1.340000e-11,-8.022463e-08,1.306491e-08,-4.770905e-06,1.021441e-06,1.917937e-05,2.350400e-05,1.919993e-05,1.618516e-05,4.205857e-05,1.988938e-07
1.360000e-11,-8.102175e-08,1.053275e-08,-4.781532e-06,-4.606088e-06,1.385495e-05,1.972217e-05,1.577189e-05,1.231891e-05,3.812617e-05,2.703027e-07
1.380000e-11,-8.697876e-08,4.840523e-09,-4.796394e-06,-9.910611e-06,8.235309e-06,1.556100e-05,1.218932e-05,8.406780e-06,3.294648e-05,3.278201e-07
1.400000e-11,-9.531757e-08,-4.752349e-09,-4.815402e-06,-1.478931e-05,2.430376e-06,1.102550e-05,8.457587e-06,4.494666e-06,2.665351e-05,3.668190e-07
1.420000e-11,-1.015277e-07,-1.727384e-08,-4.838027e-06,-1.914671e-05,-3.395003e-06,6.171474e-06,4.613255e-06,6.554486e-07,1.943062e-05,3.830344e-07
1.440000e-11,-1.011525e-07,-2.986067e-08,-4.863499e-06,-2.290257e-05,-9.038865e-06,1.108316e-06,7.227589e-07,-3.018395e-06,1.154332e-05,3.731889e-07
1.460000e-11,-9.181411e-08,-3.848811e-08,-4.891070e-06,-2.599425e-05,-1.428744e-05,-4.005438e-06,-3.121268e-06,-6.423495e-06,3.368223e-06,3.354849e-07
1.480000e-11,-7.503260e-08,-3.944689e-08,-4.920215e-06,-2.837384e-05,-1.893920e-05,-8.975020e-06,-6.805760e-06,-9.453860e-06,-4.621637e-06,2.698846e-07
1.500000e-11,-5.666939e-08,-3.098014e-08,-4.950676e-06,-3.000273e-05,-2.281993e-05,-1.358876e-05,-1.020476e-05,-1.200789e-05,-1.192720e-05,1.782003e-07
1.520000e-11,-4.489483e-08,-1.431159e-08,-4.982351e-06,-3.084728e-05,-2.578669e-05,-1.763847e-05,-1.318801e-05,-1.399418e-05,-1.811374e-05,6.408496e-08
1.540000e-11,-4.627892e-08,6.495986e-09,-5.015081e-06,-3.087822e-05,-2.772499e-05,-2.093507e-05,-1.562946e-05,-1.533670e-05,-2.286870e-05,-6.697601e-08
1.560000e-11,-6.224467e-08,2.588431e-08,-5.048468e-06,-3.007458e-05,-2.854553e-05,-2.331661e-05,-1.741454e-05,-1.597945e-05,-2.600449e-05,-2.076314e-07
1.580000e-11,-8.801420e-08,3.877916e-08,-5.081773e-06,-2.843065e-05,-2.818603e-05,-2.465049e-05,-1.844582e-05,-1.589104e-05,-2.742516e-05,-3.486328e-07
1.600000e-11,-1.146215e-07,4.230134e-08,-5.113895e-06,-2.596444e-05,-2.661952e-05,-2.483478e-05,-1.864783e-05,-1.506895e-05,-2.709391e-05,-4.789386e-07
1.620000e-11,-1.327964e-07,3.644977e-08,-5.143383e-06,-2.272637e-05,-2.386760e-05,-2.380379e-05,-1.797252e-05,-1.354365e-05,-2.502941e-05,-5.861444e-07
1.640000e-11,-1.366219e-07,2.357266e-08,-5.168436e-06,-1.880818e-05,-2.001590e-05,-2.154054e-05,-1.640702e-05,-1.138251e-05,-2.133555e-05,-6.574309e-07
1.660000e-11,-1.253269e-07,7.117842e-09,-5.186935e-06,-1.435113e-05,-1.522840e-05,-1.809552e-05,-1.398400e-05,-8.692708e-06,-1.624516e-05,-6.811242e-07
1.680000e-11,-1.029285e-07,-9.488804e-09,-5.196633e-06,-9.551045e-06,-9.756007e-06,-1.360741e-05,-1.079309e-05,-5.621367e-06,-1.014510e-05,-6.487345e-07
1.700000e-11,-7.653184e-08,-2.322462e-08,-5.195570e-06,-4.654939e-06,-3.932562e-06,-8.317775e-06,-6.989626e-06,-2.350944e-06,-3.556976e-06,-5.570312e-07
1.720000e-11,-5.417450e-08,-3.125455e-08,-5.182652e-06,5.473089e-08,1.848511e-06,-2.569604e-06,-2.795453e-06,9.117474e-07,2.928170e-06,-4.095107e-07
1.740000e-11,-4.258949e-08,-3.097527e-08,-5.158087e-06,4.287320e-06,7.176368e-06,3.217850e-06,1.512453e-06,3.952084e-06,8.736043e-06,-2.167185e-07
1.760000e-11,-4.512629e-08,-2.104847e-08,-5.123415e-06,7.775595e-06,1.167268e-05,8.596216e-06,5.625751e-06,6.566841e-06,1.338342e-05,4.680906e-09
1.780000e-11,-6.045602e-08,-3.026325e-09,-5.081136e-06,1.030243e-05,1.503282e-05,1.314357e-05,9.236056e-06,8.582153e-06,1.652154e-05,2.337126e-07
1.800000e-11,-8.281974e-08,1.788483e-08,-5.034207e-06,1.171735e-05,1.704770e-05,1.651059e-05,1.206594e-05,9.867418e-06,1.795075e-05,4.472237e-07
1.820000e-11,-1.039867e-07,3.410638e-08,-4.985724e-06,1.194426e-05,1.760808e-05,1.844672e-05,1.389331e-05,1.034459e-05,1.762092e-05,6.220004e-07
1.840000e-11,-1.162001e-07,3.874592e-08,-4.938894e-06,1.098595e-05,1.670225e-05,1.880931e-05,1.456782e-05,9.993984e-06,1.563115e-05,7.369151e-07
1.860000e-11,-1.149305e-07,2.886757e-08,-4.897152e-06,8.929433e-06,1.441816e-05,1.756731e-05,1.402233e-05,8.857860e-06,1.223126e-05,7.753489e-07
1.880000e-11,-1.004888e-07,7.257655e-09,-4.864122e-06,5.950871e-06,1.095194e-05,1.481054e-05,1.228347e-05,7.041419e-06,7.815171e-06,7.279353e-07
1.900000e-11,-7.807334e-08,-1.817424e-08,-4.843195e-06,2.313337e-06,6.613052e-06,1.076480e-05,9.482027e-06,4.709330e-06,2.890878e-06,5.951556e-07
1.920000e-11,-5.615260e-08,-3.718105e-08,-4.836810e-06,-1.650087e-06,1.810834e-06,5.799388e-06,5.857712e-06,2.075241e-06,-1.979741e-06,3.888695e-07
1.940000e-11,-4.339318e-08,-4.130462e-08,-4.845788e-06,-5.569304e-06,-2.986017e-06,4.073751e-07,1.749661e-06,-6.166282e-07,-6.259650e-06,1.319058e-07
1.960000e-11,-4.505320e-08,-2.793029e-08,-4.869106e-06,-9.079310e-06,-7.309107e-06,-4.850372e-06,-2.433852e-06,-3.115969e-06,-9.509761e-06,-1.445526e-07
1.980000e-11,-6.048328e-08,-2.251648e-09,-4.904206e-06,-1.186011e-05,-1.074973e-05,-9.424195e-06,-6.263630e-06,-5.192776e-06,-1.143700e-05,-4.052394e-07
2.000000e-11,-8.315020e-08,2.448202e-08,-4.947570e-06,-1.366612e-05,-1.300111e-05,-1.285005e-05,-9.343801e-06,-6.661071e-06,-1.191378e-05,-6.157241e-07
2.020000e-11,-5.209221e-08,4.004619e-08,-4.995202e-06,-1.434404e-05,-1.387974e-05,-1.479834e-05,-1.135847e-05,-7.396964e-06,-1.097790e-05,-7.470821e-07
2.040000e-11,-3.418959e-08,3.716733e-08,-5.042219e-06,-1.385369e-05,-1.334426e-05,-1.510789e-05,-1.211330e-05,-7.355915e-06,-8.829438e-06,-7.804519e-07
2.060000e-11,-1.900839e-08,1.717638e-08,-5.083696e-06,-1.227563e-05,-1.149960e-05,-1.379547e-05,-1.155650e-05,-6.578044e-06,-5.806843e-06,-7.101470e-07
2.080000e-11,2.163614e-09,-1.057318e-08,-5.115428e-06,-9.801410e-06,-8.584344e-06,-1.104709e-05,-9.778217e-06,-5.179183e-06,-2.337883e-06,-5.446495e-07
2.100000e-11,2.198072e-08,-3.307928e-08,-5.134436e-06,-6.709614e-06,-4.942552e-06,-7.197291e-06,-6.995054e-06,-3.331870e-06,1.125979e-06,-3.054935e-07
2.120000e-11,3.064302e-08,-3.975293e-08,-5.139192e-06,-3.333475e-06,-9.835825e-07,-2.696520e-06,-3.526350e-06,-1.242706e-06,4.174590e-06,-2.443607e-08
2.140000e-11,2.459655e-08,-2.749963e-08,-5.129644e-06,-2.510428e-08,2.865359e-06,1.937876e-06,2.373891e-07,8.696198e-07,6.488009e-06,2.606677e-07
2.160000e-11,7.701921e-09,-2.388080e-09,-5.107192e-06,2.880894e-06,6.207785e-06,6.186287e-06,3.876500e-06,2.794951e-06,7.863716e-06,5.109528e-07
2.180000e-11,-1.160236e-08,2.324770e-08,-5.074571e-06,5.102000e-06,8.720563e-06,9.594981e-06,6.993060e-06,4.351497e-06,8.225441e-06,6.920786e-07
2.200000e-11,-2.458400e-08,3.699826e-08,-5.035536e-06,6.436473e-06,1.018423e-05,1.182966e-05,9.260778e-06,5.403591e-06,7.619003e-06,7.792897e-07
2.220000e-11,-2.604191e-08,3.254061e-08,-4.994363e-06,6.781589e-06,1.049787e-05,1.270307e-05,1.046124e-05,5.874069e-06,6.197708e-06,7.609548e-07
2.240000e-11,-1.620431e-08,1.253793e-08,-4.955305e-06,6.139228e-06,9.679939e-06,1.217870e-05,1.050026e-05,5.748463e-06,4.197214e-06,6.399580e-07
2.260000e-11,-1.230233e-10,-1.296653e-08,-4.922171e-06,4.610286e-06,7.859344e-06,1.036168e-05,9.407818e-06,5.071107e-06,1.900790e-06,4.329924e-07
2.280000e-11,1.491143e-08,-3.159184e-08,-4.898075e-06,2.380989e-06,5.259786e-06,7.485274e-06,7.329101e-06,3.935784e-06,-4.003374e-07,1.682207e-07
2.300000e-11,2.264893e-08,-3.461046e-08,-4.885213e-06,-2.970710e-07,2.177467e-06,3.891632e-06,4.510647e-06,2.473744e-06,-2.444207e-06,-1.182972e-07
2.320000e-11,2.043407e-08,-2.110952e-08,-4.884618e-06,-3.133269e-06,-1.049656e-06,-1.401598e-09,1.278200e-06,8.403237e-07,-4.026563e-06,-3.872314e-07
2.340000e-11,1.004218e-08,1.721171e-09,-4.895941e-06,-5.830030e-06,-4.080090e-06,-3.751086e-06,-1.998601e-06,-8.000440e-07,-5.017639e-06,-6.014074e-07
2.360000e-11,-3.427020e-09,2.239936e-08,-4.917458e-06,-8.116660e-06,-6.608450e-06,-6.949045e-06,-4.952942e-06,-2.290089e-06,-5.367712e-06,-7.313102e-07
2.380000e-11,-1.399318e-08,3.102510e-08,-4.946394e-06,-9.778301e-06,-8.397980e-06,-9.272020e-06,-7.268415e-06,-3.495323e-06,-5.103279e-06,-7.595423e-07
2.400000e-11,-1.742976e-08,2.406331e-08,-4.979435e-06,-1.067458e-05,-9.300186e-06,-1.051188e-05,-8.715043e-06,-4.316211e-06,-4.315692e-06,-6.832414e-07
2.420000e-11,-1.293541e-08,5.696899e-09,-5.013198e-06,-1.074696e-05,-9.261653e-06,-1.058480e-05,-9.167998e-06,-4.695015e-06,-3.143927e-06,-5.141067e-07
2.440000e-11,-3.198829e-09,-1.462207e-08,-5.044503e-06,-1.001771e-05,-8.322115e-06,-9.528181e-06,-8.611913e-06,-4.617437e-06,-1.753580e-06,-2.763656e-07
2.460000e-11,7.035957e-09,-2.697991e-08,-5.070485e-06,-8.584287e-06,-6.607404e-06,-7.492638e-06,-7.136978e-06,-4.110482e-06,-3.149915e-07,-3.289624e-09
2.480000e-11,1.317082e-08,-2.579782e-08,-5.088713e-06,-6.610107e-06,-4.317469e-06,-4.728937e-06,-4.929508e-06,-3.237924e-06,1.016374e-06,2.672365e-07
2.500000e-11,1.273293e-08,-1.235103e-08,-5.097428e-06,-4.310120e-06,-1.707089e-06,-1.563801e-06,-2.254256e-06,-2.093704e-06,2.114942e-06,4.977506e-07
2.520000e-11,6.309861e-09,6.177896e-09,-5.095852e-06,-1.929398e-06,9.417182e-07,1.638624e-06,5.751505e-07,-7.929809e-07,2.894303e-06,6.564183e-07
2.540000e-11,-2.895724e-09,2.054321e-08,-5.084394e-06,2.839944e-07,3.352356e-06,4.524060e-06,3.235920e-06,5.389828e-07,3.310755e-06,7.216796e-07
2.560000e-11,-1.062275e-08,2.408100e-08,-5.064597e-06,2.107158e-06,5.284808e-06,6.792138e-06,5.437659e-06,1.778912e-06,3.361810e-06,6.854465e-07
2.580000e-11,-1.348100e-08,1.576381e-08,-5.038856e-06,3.365990e-06,6.559334e-06,8.227097e-06,6.955961e-06,2.816746e-06,3.080713e-06,5.541750e-07
2.600000e-11,-1.038715e-08,3.057556e-10,-5.010036e-06,3.950978e-06,7.070449e-06,8.712816e-06,7.652789e-06,3.564559e-06,2.528235e-06,3.476495e-07
2.620000e-11,-2.909320e-09,-1.447421e-08,-4.981149e-06,3.824871e-06,6.792513e-06,8.236319e-06,7.484592e-06,3.962700e-06,1.783088e-06,9.584386e-08
2.640000e-11,5.558946e-09,-2.157947e-08,-4.955106e-06,3.023518e-06,5.779098e-06,6.884438e-06,6.501822e-06,3.983434e-06,9.322620e-07,-1.654892e-07
2.660000e-11,1.136369e-08,-1.812874e-08,-4.934494e-06,1.650643e-06,4.156797e-06,4.834318e-06,4.841749e-06,3.632414e-06,6.230344e-08,-3.998127e-07
